Warning: v2: no DC value, transient time 0 value used
Warning: v1: no DC value, transient time 0 value used

Circuit: **************************************************************

Reducing trtol to 1 for xspice 'A' devices
Doing analysis at TEMP = 27.000000 and TNOM = 27.000000


Initial Transient Solution
--------------------------

Node                                   Voltage
----                                   -------
vres                                 0.0304231
1                                      1.65209
vint01                               0.0276491
3                                    0.0294731
vint02                               0.0314839
2                                    0.0274721
vfb                                  0.0294184
vdd                                        3.3
4                                           -1
vin                                       1.65
vp                                          12
vm                                         -12
xu1.3                                  1.65105
xu1.4                                   2.3488
xu1.5                                 -11.9742
xu1.6                                 -11.9742
xu1.7                                  1.65209
xu1.16                             9.28449e-05
xu1.49                                       0
xu1.8                                    10.37
xu1.9                                0.0137285
xu1.10                                 -11.365
xu1.98                                       0
xu1.15                               0.0137285
xu1.17                                       0
xu1.23                               0.0137285
xu1.24                               0.0148175
xu1.26                                0.657649
xu1.22                               0.0276491
xu1.25                                0.013347
xu1.27                               -0.602351
xu1.21                               -0.242351
xu1.20                                0.297649
xu2.3                                0.0284726
xu2.4                                 0.726176
xu2.5                                 -11.9742
xu2.6                                 -11.9742
xu2.7                                0.0294737
xu2.16                             1.60113e-06
xu2.49                                       0
xu2.8                                    10.37
xu2.9                                 0.062768
xu2.10                                 -11.365
xu2.98                                       0
xu2.15                               0.0627679
xu2.17                                       0
xu2.23                               0.0627679
xu2.24                               0.0629642
xu2.26                                0.661484
xu2.22                               0.0314839
xu2.25                               0.0607148
xu2.27                               -0.598516
xu2.21                               -0.238516
xu2.20                                0.301484
xu3.5                                 -11.4579
xu3.6                                 -11.4579
xu3.4                                -0.885927
xu3.3                                0.0294231
xu3.98                                       0
xu3.97                                      -6
xu3.9                                0.0158161
xu3.8                                      5.9
xu3.10                                   -5.95
xu3.23                                0.029418
xu3.29                               0.0294184
xu3.40                                      12
xu3.41                                     -12
xu3.31                               0.0294184
xu3.25                                 1.42942
xu3.26                                -1.37058
xu3.110                              -0.460832
xu3.111                                      0
xu3.112                                      0
v.xu3.vi2#branch                   5.47012e-08
v.xu3.vt2#branch                   2.73508e-08
v.xu3.vi1#branch                  -4.61832e-13
v.xu3.vt1#branch                  -2.73508e-08
v.xu3.v6#branch                   -5.47017e-08
l.xu3.l1#branch                   -5.47017e-08
l.xu2.l3#branch                    0.000106101
l.xu2.l2#branch                   -1.60113e-09
l.xu1.l3#branch                   -4.04341e-05
l.xu1.l2#branch                   -9.28449e-08
e.xu3.eref2#branch                 -8.1631e-14
e.xu3.eref1#branch                 -8.1631e-14
e.xu2.e1#branch                    0.000106101
e.xu2.eh#branch                    1.18319e-12
e.xu1.e1#branch                   -4.04341e-05
e.xu1.eh#branch                    9.94662e-13
v.xu3.v5#branch                     -1.401e-12
v.xu3.v4#branch                     -1.401e-12
v.xu3.v3#branch                    5.96682e-12
v.xu3.v2#branch                    5.88518e-12
v.xu3.vos#branch                   2.24025e-11
v.xu2.v4#branch                   -2.39714e-13
v.xu2.v5#branch                   -3.02283e-13
v.xu2.v7#branch                    -0.00011732
v.xu2.v6#branch                   -1.12189e-05
v.xu2.v3#branch                    1.14288e-11
v.xu2.v2#branch                    1.03082e-11
v.xu1.v4#branch                    -2.8492e-13
v.xu1.v5#branch                   -2.57078e-13
v.xu1.v7#branch                    -2.1797e-05
v.xu1.v6#branch                   -6.22311e-05
v.xu1.v3#branch                    1.13797e-11
v.xu1.v2#branch                    1.03573e-11
v5#branch                          -0.00672332
v4#branch                          -0.00678912
v3#branch                         -0.000164791
v2#branch                          0.000103042
v1#branch                           5.2042e-08
a$poly$e.xu2.eos#branch_1_0        4.49521e-08
a$poly$e.xu1.eos#branch_1_0        4.49493e-08

 Reference value :  2.20022e-04 Reference value :  4.45023e-04 Reference value :  6.88020e-04 Reference value :  9.10017e-04 Reference value :  1.15502e-03 Reference value :  1.37504e-03

No. of Data Rows : 25067
                     **************************************************************
                     Transient Analysis  Sun Jan  4 07:09:46  2015
--------------------------------------------------------------------------------------------------------
Index   time            v(vint01)       v(vint02)       v(vres)         v(vfb)          v(vin)          
--------------------------------------------------------------------------------------------------------
0	0.000000e+00	2.764913e-02	3.148393e-02	3.042309e-02	2.941841e-02	1.650000e+00	
1	1.000000e-10	2.764913e-02	3.148393e-02	3.042309e-02	2.941841e-02	1.650001e+00	
2	2.000000e-10	2.764913e-02	3.148393e-02	3.042309e-02	2.941841e-02	1.650002e+00	
3	4.000000e-10	2.764913e-02	3.148393e-02	3.042309e-02	2.941841e-02	1.650004e+00	
4	8.000000e-10	2.764913e-02	3.148393e-02	3.042309e-02	2.941841e-02	1.650008e+00	
5	1.600000e-09	2.764914e-02	3.148393e-02	3.042309e-02	2.941841e-02	1.650017e+00	
6	3.200000e-09	2.764915e-02	3.148393e-02	3.042309e-02	2.941841e-02	1.650033e+00	
7	6.400000e-09	2.764917e-02	3.148393e-02	3.042309e-02	2.941841e-02	1.650066e+00	
8	1.000000e-08	2.764919e-02	3.148393e-02	3.042309e-02	2.941841e-02	1.650104e+00	
9	1.064000e-08	2.764919e-02	3.148401e-02	3.042317e-02	2.941841e-02	1.650110e+00	
10	1.192000e-08	2.764920e-02	3.148432e-02	3.042350e-02	2.941843e-02	1.650124e+00	
11	1.448000e-08	2.764922e-02	3.148588e-02	3.042514e-02	2.941871e-02	1.650150e+00	
12	1.960000e-08	2.764928e-02	3.149273e-02	3.043234e-02	2.942164e-02	1.650203e+00	
13	2.000000e-08	2.764928e-02	3.149347e-02	3.043313e-02	2.942203e-02	1.650207e+00	
14	2.080000e-08	2.764929e-02	3.149499e-02	3.043473e-02	2.942297e-02	1.650216e+00	
15	2.240000e-08	2.764932e-02	3.149804e-02	3.043792e-02	2.942506e-02	1.650232e+00	
16	2.560000e-08	2.764937e-02	3.150415e-02	3.044432e-02	2.943027e-02	1.650265e+00	
17	3.200000e-08	2.764952e-02	3.151637e-02	3.045711e-02	2.944251e-02	1.650332e+00	
18	4.480000e-08	2.765012e-02	3.154082e-02	3.048268e-02	2.946815e-02	1.650464e+00	
19	7.040000e-08	2.765350e-02	3.158967e-02	3.053378e-02	2.951921e-02	1.650730e+00	
20	1.018292e-07	2.766460e-02	3.164952e-02	3.059643e-02	2.958189e-02	1.651056e+00	
21	1.352585e-07	2.768989e-02	3.171301e-02	3.066296e-02	2.964841e-02	1.651402e+00	
22	1.727077e-07	2.774178e-02	3.178387e-02	3.073736e-02	2.972283e-02	1.651791e+00	
23	2.110962e-07	2.782788e-02	3.185617e-02	3.081349e-02	2.979895e-02	1.652188e+00	
24	2.534694e-07	2.796870e-02	3.193560e-02	3.089733e-02	2.988281e-02	1.652628e+00	
25	2.954606e-07	2.816045e-02	3.201398e-02	3.098023e-02	2.996571e-02	1.653063e+00	
26	3.404029e-07	2.842574e-02	3.209765e-02	3.106873e-02	3.005423e-02	1.653529e+00	
27	3.843131e-07	2.874435e-02	3.217942e-02	3.115498e-02	3.014049e-02	1.653984e+00	
28	4.368458e-07	2.919772e-02	3.227775e-02	3.125793e-02	3.024345e-02	1.654529e+00	
29	5.184052e-07	3.003314e-02	3.243312e-02	3.141738e-02	3.040290e-02	1.655374e+00	
30	6.525260e-07	3.163530e-02	3.270314e-02	3.167978e-02	3.066523e-02	1.656765e+00	
31	7.996375e-07	3.351762e-02	3.303319e-02	3.197092e-02	3.095615e-02	1.658290e+00	
32	9.542382e-07	3.542338e-02	3.343636e-02	3.228657e-02	3.127134e-02	1.659893e+00	
33	1.020000e-06	3.618197e-02	3.362967e-02	3.242548e-02	3.140997e-02	1.660575e+00	
34	1.021000e-06	3.619322e-02	3.363260e-02	3.242742e-02	3.141209e-02	1.660585e+00	
35	1.023000e-06	3.621570e-02	3.363796e-02	3.243090e-02	3.141626e-02	1.660606e+00	
36	1.027000e-06	3.626055e-02	3.364647e-02	3.243548e-02	3.142362e-02	1.660647e+00	
37	1.030000e-06	3.629409e-02	3.365089e-02	3.243682e-02	3.142772e-02	1.660678e+00	
38	1.030800e-06	3.630302e-02	3.365184e-02	3.243694e-02	3.142849e-02	1.660686e+00	
39	1.032400e-06	3.632088e-02	3.365376e-02	3.243718e-02	3.142981e-02	1.660703e+00	
40	1.035600e-06	3.635651e-02	3.365761e-02	3.243767e-02	3.143146e-02	1.660736e+00	
41	1.042000e-06	3.642754e-02	3.366542e-02	3.243869e-02	3.143299e-02	1.660803e+00	
42	1.054800e-06	3.656860e-02	3.368150e-02	3.244085e-02	3.143502e-02	1.660935e+00	
43	1.080400e-06	3.684689e-02	3.371564e-02	3.244572e-02	3.143979e-02	1.661201e+00	
44	1.131600e-06	3.738943e-02	3.379217e-02	3.245787e-02	3.145160e-02	1.661731e+00	
45	1.234000e-06	3.843078e-02	3.398194e-02	3.249335e-02	3.148635e-02	1.662793e+00	
46	1.438800e-06	4.043496e-02	3.454183e-02	3.262402e-02	3.161492e-02	1.664916e+00	
47	1.666079e-06	4.267559e-02	3.553269e-02	3.289906e-02	3.188647e-02	1.667272e+00	
48	1.882010e-06	4.489592e-02	3.695227e-02	3.334285e-02	3.232544e-02	1.669511e+00	
49	2.010000e-06	4.624760e-02	3.806018e-02	3.371530e-02	3.269428e-02	1.670838e+00	
50	2.011000e-06	4.625822e-02	3.806985e-02	3.371878e-02	3.269754e-02	1.670848e+00	
51	2.013000e-06	4.627946e-02	3.808959e-02	3.372616e-02	3.270416e-02	1.670869e+00	
52	2.017000e-06	4.632195e-02	3.813133e-02	3.374340e-02	3.271846e-02	1.670910e+00	
53	2.020000e-06	4.635382e-02	3.816463e-02	3.375848e-02	3.273068e-02	1.670941e+00	
54	2.020800e-06	4.636232e-02	3.817374e-02	3.376276e-02	3.273428e-02	1.670950e+00	
55	2.022400e-06	4.637931e-02	3.819199e-02	3.377132e-02	3.274170e-02	1.670966e+00	
56	2.025600e-06	4.641331e-02	3.822859e-02	3.378848e-02	3.275758e-02	1.670999e+00	
57	2.032000e-06	4.648132e-02	3.830221e-02	3.382298e-02	3.279134e-02	1.671066e+00	
58	2.044800e-06	4.661736e-02	3.845104e-02	3.389276e-02	3.286079e-02	1.671198e+00	
59	2.070400e-06	4.688947e-02	3.875503e-02	3.403537e-02	3.300256e-02	1.671464e+00	
60	2.121600e-06	4.743349e-02	3.938816e-02	3.433329e-02	3.329882e-02	1.671995e+00	
61	2.224000e-06	4.851846e-02	4.075194e-02	3.498276e-02	3.394468e-02	1.673056e+00	
62	2.428800e-06	5.066938e-02	4.382408e-02	3.651236e-02	3.546648e-02	1.675179e+00	
63	2.756794e-06	5.407475e-02	4.940117e-02	3.961869e-02	3.856010e-02	1.678579e+00	
64	3.020000e-06	5.679903e-02	5.410032e-02	4.265393e-02	4.158659e-02	1.681307e+00	
65	3.021000e-06	5.680941e-02	5.411798e-02	4.266610e-02	4.159891e-02	1.681318e+00	
66	3.023000e-06	5.683015e-02	5.415297e-02	4.269004e-02	4.162350e-02	1.681338e+00	
67	3.027000e-06	5.687164e-02	5.422101e-02	4.273559e-02	4.167173e-02	1.681380e+00	
68	3.030000e-06	5.690275e-02	5.427035e-02	4.276772e-02	4.170655e-02	1.681411e+00	
69	3.030800e-06	5.691105e-02	5.428331e-02	4.277606e-02	4.171551e-02	1.681419e+00	
70	3.032400e-06	5.692765e-02	5.430923e-02	4.279274e-02	4.173324e-02	1.681436e+00	
71	3.035600e-06	5.696085e-02	5.436104e-02	4.282614e-02	4.176773e-02	1.681469e+00	
72	3.042000e-06	5.702725e-02	5.446460e-02	4.289313e-02	4.183507e-02	1.681535e+00	
73	3.054800e-06	5.716009e-02	5.467149e-02	4.302781e-02	4.196930e-02	1.681668e+00	
74	3.080400e-06	5.742592e-02	5.508432e-02	4.329987e-02	4.224064e-02	1.681933e+00	
75	3.131600e-06	5.795811e-02	5.590577e-02	4.385439e-02	4.279372e-02	1.682464e+00	
76	3.234000e-06	5.902433e-02	5.752981e-02	4.500134e-02	4.393812e-02	1.683525e+00	
77	3.438800e-06	6.116103e-02	6.069012e-02	4.741938e-02	4.635204e-02	1.685648e+00	
78	3.801941e-06	6.495141e-02	6.596274e-02	5.197021e-02	5.089854e-02	1.689412e+00	
79	4.010000e-06	6.712095e-02	6.877199e-02	5.466325e-02	5.359053e-02	1.691568e+00	
80	4.011000e-06	6.713137e-02	6.878660e-02	5.467645e-02	5.360355e-02	1.691579e+00	
81	4.013000e-06	6.715221e-02	6.881350e-02	5.470325e-02	5.362965e-02	1.691599e+00	
82	4.017000e-06	6.719391e-02	6.886903e-02	5.475925e-02	5.368283e-02	1.691641e+00	
83	4.020000e-06	6.722518e-02	6.891233e-02	5.480335e-02	5.372415e-02	1.691672e+00	
84	4.020800e-06	6.723351e-02	6.892404e-02	5.481535e-02	5.373549e-02	1.691680e+00	
85	4.022400e-06	6.725019e-02	6.894747e-02	5.483935e-02	5.375839e-02	1.691697e+00	
86	4.025600e-06	6.728354e-02	6.899433e-02	5.488734e-02	5.380520e-02	1.691730e+00	
87	4.032000e-06	6.735025e-02	6.908792e-02	5.498331e-02	5.390062e-02	1.691796e+00	
88	4.044800e-06	6.748367e-02	6.927463e-02	5.517520e-02	5.409257e-02	1.691929e+00	
89	4.070400e-06	6.775049e-02	6.964610e-02	5.555874e-02	5.447608e-02	1.692194e+00	
90	4.121600e-06	6.828413e-02	7.038100e-02	5.632467e-02	5.524206e-02	1.692725e+00	
91	4.224000e-06	6.935152e-02	7.181665e-02	5.785010e-02	5.676767e-02	1.693786e+00	
92	4.405119e-06	7.124021e-02	7.423793e-02	6.051706e-02	5.943542e-02	1.695663e+00	
93	4.572084e-06	7.298238e-02	7.633642e-02	6.292815e-02	6.184766e-02	1.697393e+00	
94	4.785053e-06	7.520586e-02	7.884338e-02	6.591774e-02	6.483918e-02	1.699600e+00	
95	5.020000e-06	7.765989e-02	8.142463e-02	6.908847e-02	6.801232e-02	1.702035e+00	
96	5.021000e-06	7.767034e-02	8.143520e-02	6.910146e-02	6.802552e-02	1.702045e+00	
97	5.023000e-06	7.769123e-02	8.145580e-02	6.912705e-02	6.805183e-02	1.702066e+00	
98	5.027000e-06	7.773302e-02	8.149507e-02	6.917579e-02	6.810341e-02	1.702108e+00	
99	5.030000e-06	7.776435e-02	8.152284e-02	6.921022e-02	6.814065e-02	1.702139e+00	
100	5.030800e-06	7.777271e-02	8.153005e-02	6.921916e-02	6.815025e-02	1.702147e+00	
101	5.032400e-06	7.778942e-02	8.154446e-02	6.923703e-02	6.816923e-02	1.702163e+00	
102	5.035600e-06	7.782285e-02	8.157326e-02	6.927276e-02	6.820617e-02	1.702197e+00	
103	5.042000e-06	7.788971e-02	8.163077e-02	6.934415e-02	6.827817e-02	1.702263e+00	
104	5.054800e-06	7.802341e-02	8.174551e-02	6.948666e-02	6.842072e-02	1.702396e+00	
105	5.080400e-06	7.829084e-02	8.197389e-02	6.977060e-02	6.870493e-02	1.702661e+00	
106	5.120410e-06	7.870880e-02	8.232820e-02	7.021150e-02	6.914617e-02	1.703075e+00	
107	5.166295e-06	7.918816e-02	8.273120e-02	7.071285e-02	6.964794e-02	1.703551e+00	
108	5.221232e-06	7.976212e-02	8.321014e-02	7.130717e-02	7.024274e-02	1.704120e+00	
109	5.289937e-06	8.047998e-02	8.380550e-02	7.204161e-02	7.097777e-02	1.704832e+00	
110	5.379508e-06	8.141597e-02	8.457893e-02	7.298512e-02	7.192197e-02	1.705760e+00	
111	5.496299e-06	8.263660e-02	8.558789e-02	7.419350e-02	7.313119e-02	1.706970e+00	
112	5.652211e-06	8.426651e-02	8.694384e-02	7.577324e-02	7.471181e-02	1.708586e+00	
113	5.863560e-06	8.647665e-02	8.881004e-02	7.786628e-02	7.680568e-02	1.710775e+00	
114	6.010000e-06	8.800848e-02	9.012670e-02	7.929144e-02	7.823117e-02	1.712292e+00	
115	6.011000e-06	8.801894e-02	9.013597e-02	7.930132e-02	7.824087e-02	1.712303e+00	
116	6.013000e-06	8.803987e-02	9.015474e-02	7.932147e-02	7.826032e-02	1.712323e+00	
117	6.017000e-06	8.808172e-02	9.019421e-02	7.936416e-02	7.830022e-02	1.712365e+00	
118	6.020000e-06	8.811310e-02	9.022551e-02	7.939827e-02	7.833156e-02	1.712396e+00	
119	6.020800e-06	8.812147e-02	9.023405e-02	7.940760e-02	7.834024e-02	1.712404e+00	
120	6.022400e-06	8.813821e-02	9.025114e-02	7.942627e-02	7.835782e-02	1.712421e+00	
121	6.025600e-06	8.817170e-02	9.028533e-02	7.946359e-02	7.839397e-02	1.712454e+00	
122	6.032000e-06	8.823866e-02	9.035374e-02	7.953821e-02	7.846806e-02	1.712520e+00	
123	6.044800e-06	8.837259e-02	9.049067e-02	7.968733e-02	7.861729e-02	1.712653e+00	
124	6.070400e-06	8.864045e-02	9.076485e-02	7.998510e-02	7.891510e-02	1.712918e+00	
125	6.121600e-06	8.917620e-02	9.131428e-02	8.057885e-02	7.950900e-02	1.713449e+00	
126	6.224000e-06	9.024780e-02	9.241500e-02	8.175979e-02	8.069015e-02	1.714509e+00	
127	6.379624e-06	9.187663e-02	9.408441e-02	8.353928e-02	8.246994e-02	1.716121e+00	
128	6.546672e-06	9.362535e-02	9.586277e-02	8.543018e-02	8.436110e-02	1.717852e+00	
129	6.769725e-06	9.596094e-02	9.820883e-02	8.792493e-02	8.685623e-02	1.720162e+00	
130	7.020000e-06	9.858249e-02	1.008053e-01	9.068390e-02	8.961557e-02	1.722755e+00	
131	7.021000e-06	9.859297e-02	1.008155e-01	9.069464e-02	8.962650e-02	1.722765e+00	
132	7.023000e-06	9.861392e-02	1.008354e-01	9.071571e-02	8.964829e-02	1.722786e+00	
133	7.027000e-06	9.865583e-02	1.008734e-01	9.075546e-02	8.969084e-02	1.722827e+00	
134	7.030000e-06	9.868726e-02	1.009002e-01	9.078317e-02	8.972133e-02	1.722858e+00	
135	7.030800e-06	9.869564e-02	1.009072e-01	9.079032e-02	8.972913e-02	1.722866e+00	
136	7.032400e-06	9.871240e-02	1.009211e-01	9.080461e-02	8.974452e-02	1.722883e+00	
137	7.035600e-06	9.874592e-02	1.009488e-01	9.083320e-02	8.977429e-02	1.722916e+00	
138	7.042000e-06	9.881297e-02	1.010044e-01	9.089037e-02	8.983201e-02	1.722982e+00	
139	7.054800e-06	9.894707e-02	1.011154e-01	9.100468e-02	8.994625e-02	1.723115e+00	
140	7.080400e-06	9.921527e-02	1.013375e-01	9.123316e-02	9.017476e-02	1.723380e+00	
141	7.131600e-06	9.975170e-02	1.017818e-01	9.168961e-02	9.063118e-02	1.723910e+00	
142	7.234000e-06	1.008247e-01	1.026739e-01	9.260078e-02	9.154233e-02	1.724971e+00	
143	7.393648e-06	1.024980e-01	1.040844e-01	9.401884e-02	9.296021e-02	1.726624e+00	
144	7.573660e-06	1.043853e-01	1.057162e-01	9.561938e-02	9.456039e-02	1.728488e+00	
145	7.825328e-06	1.070248e-01	1.080839e-01	9.787419e-02	9.681431e-02	1.731094e+00	
146	8.010000e-06	1.089622e-01	1.098861e-01	9.955012e-02	9.848939e-02	1.733007e+00	
147	8.011000e-06	1.089727e-01	1.098962e-01	9.955946e-02	9.849853e-02	1.733017e+00	
148	8.013000e-06	1.089936e-01	1.099166e-01	9.957854e-02	9.851689e-02	1.733038e+00	
149	8.017000e-06	1.090356e-01	1.099595e-01	9.961909e-02	9.855463e-02	1.733079e+00	
150	8.020000e-06	1.090671e-01	1.099933e-01	9.965162e-02	9.858436e-02	1.733110e+00	
151	8.020800e-06	1.090755e-01	1.100026e-01	9.966053e-02	9.859262e-02	1.733118e+00	
152	8.022400e-06	1.090923e-01	1.100210e-01	9.967836e-02	9.860935e-02	1.733135e+00	
153	8.025600e-06	1.091259e-01	1.100579e-01	9.971402e-02	9.864382e-02	1.733168e+00	
154	8.032000e-06	1.091930e-01	1.101318e-01	9.978535e-02	9.871458e-02	1.733234e+00	
155	8.044800e-06	1.093273e-01	1.102798e-01	9.992806e-02	9.885730e-02	1.733367e+00	
156	8.070400e-06	1.095960e-01	1.105761e-01	1.002137e-01	9.914279e-02	1.733632e+00	
157	8.121600e-06	1.101333e-01	1.111706e-01	1.007857e-01	9.971464e-02	1.734162e+00	
158	8.224000e-06	1.112080e-01	1.123636e-01	1.019331e-01	1.008616e-01	1.735222e+00	
159	8.425644e-06	1.133247e-01	1.147096e-01	1.042039e-01	1.031317e-01	1.737310e+00	
160	8.615096e-06	1.153138e-01	1.168927e-01	1.063475e-01	1.052748e-01	1.739271e+00	
161	8.895627e-06	1.182601e-01	1.200663e-01	1.095251e-01	1.084519e-01	1.742175e+00	
162	9.020000e-06	1.195667e-01	1.214495e-01	1.109316e-01	1.098583e-01	1.743463e+00	
163	9.021000e-06	1.195772e-01	1.214604e-01	1.109427e-01	1.098696e-01	1.743473e+00	
