Warning: v2: no DC value, transient time 0 value used
Warning: v1: no DC value, transient time 0 value used

Circuit: **************************************************************

Reducing trtol to 1 for xspice 'A' devices
Doing analysis at TEMP = 27.000000 and TNOM = 27.000000


Initial Transient Solution
--------------------------

Node                                   Voltage
----                                   -------
vres                                 0.0304231
1                                      1.65209
vint01                               0.0276491
3                                    0.0294731
vint02                               0.0314839
2                                    0.0274721
vfb                                  0.0294184
vdd                                        3.3
4                                           -1
vin                                       1.65
vp                                          12
vm                                         -12
xu1.3                                  1.65105
xu1.4                                   2.3488
xu1.5                                 -11.9742
xu1.6                                 -11.9742
xu1.7                                  1.65209
xu1.16                             9.28449e-05
xu1.49                                       0
xu1.8                                    10.37
xu1.9                                0.0137285
xu1.10                                 -11.365
xu1.98                                       0
xu1.15                               0.0137285
xu1.17                                       0
xu1.23                               0.0137285
xu1.24                               0.0148175
xu1.26                                0.657649
xu1.22                               0.0276491
xu1.25                                0.013347
xu1.27                               -0.602351
xu1.21                               -0.242351
xu1.20                                0.297649
xu2.3                                0.0284726
xu2.4                                 0.726176
xu2.5                                 -11.9742
xu2.6                                 -11.9742
xu2.7                                0.0294737
xu2.16                             1.60113e-06
xu2.49                                       0
xu2.8                                    10.37
xu2.9                                 0.062768
xu2.10                                 -11.365
xu2.98                                       0
xu2.15                               0.0627679
xu2.17                                       0
xu2.23                               0.0627679
xu2.24                               0.0629642
xu2.26                                0.661484
xu2.22                               0.0314839
xu2.25                               0.0607148
xu2.27                               -0.598516
xu2.21                               -0.238516
xu2.20                                0.301484
xu3.5                                 -11.4579
xu3.6                                 -11.4579
xu3.4                                -0.885927
xu3.3                                0.0294231
xu3.98                                       0
xu3.97                                      -6
xu3.9                                0.0158161
xu3.8                                      5.9
xu3.10                                   -5.95
xu3.23                                0.029418
xu3.29                               0.0294184
xu3.40                                      12
xu3.41                                     -12
xu3.31                               0.0294184
xu3.25                                 1.42942
xu3.26                                -1.37058
xu3.110                              -0.460832
xu3.111                                      0
xu3.112                                      0
v.xu3.vi2#branch                   5.47012e-08
v.xu3.vt2#branch                   2.73508e-08
v.xu3.vi1#branch                  -4.61832e-13
v.xu3.vt1#branch                  -2.73508e-08
v.xu3.v6#branch                   -5.47017e-08
l.xu3.l1#branch                   -5.47017e-08
l.xu2.l3#branch                    0.000106101
l.xu2.l2#branch                   -1.60113e-09
l.xu1.l3#branch                   -4.04341e-05
l.xu1.l2#branch                   -9.28449e-08
e.xu3.eref2#branch                 -8.1631e-14
e.xu3.eref1#branch                 -8.1631e-14
e.xu2.e1#branch                    0.000106101
e.xu2.eh#branch                    1.18319e-12
e.xu1.e1#branch                   -4.04341e-05
e.xu1.eh#branch                    9.94662e-13
v.xu3.v5#branch                     -1.401e-12
v.xu3.v4#branch                     -1.401e-12
v.xu3.v3#branch                    5.96682e-12
v.xu3.v2#branch                    5.88518e-12
v.xu3.vos#branch                   2.24025e-11
v.xu2.v4#branch                   -2.39714e-13
v.xu2.v5#branch                   -3.02283e-13
v.xu2.v7#branch                    -0.00011732
v.xu2.v6#branch                   -1.12189e-05
v.xu2.v3#branch                    1.14288e-11
v.xu2.v2#branch                    1.03082e-11
v.xu1.v4#branch                    -2.8492e-13
v.xu1.v5#branch                   -2.57078e-13
v.xu1.v7#branch                    -2.1797e-05
v.xu1.v6#branch                   -6.22311e-05
v.xu1.v3#branch                    1.13797e-11
v.xu1.v2#branch                    1.03573e-11
v5#branch                          -0.00672332
v4#branch                          -0.00678912
v3#branch                         -0.000164791
v2#branch                          0.000103042
v1#branch                           5.2042e-08
a$poly$e.xu2.eos#branch_1_0        4.49521e-08
a$poly$e.xu1.eos#branch_1_0        4.49493e-08

 Reference value :  2.35234e-04doAnalyses: TRAN:  Timestep too small; time = 0.000292021, timestep = 1.25e-18: trouble with xu1:qx-instance q.xu1.q2


run simulation(s) aborted
                     **************************************************************
                     Transient Analysis  Sat Jan  3 23:48:26  2015
--------------------------------------------------------------------------------------------------------
Index   time            v(vint01)       v(vint02)       v(vres)         v(vfb)          v(vin)          
--------------------------------------------------------------------------------------------------------
0	0.000000e+00	2.764913e-02	3.148393e-02	3.042309e-02	2.941841e-02	1.650000e+00	
1	1.000000e-10	2.764913e-02	3.148393e-02	3.042309e-02	2.941841e-02	1.650001e+00	
2	2.000000e-10	2.764913e-02	3.148393e-02	3.042309e-02	2.941841e-02	1.650002e+00	
3	4.000000e-10	2.764913e-02	3.148393e-02	3.042309e-02	2.941841e-02	1.650004e+00	
4	8.000000e-10	2.764913e-02	3.148393e-02	3.042309e-02	2.941841e-02	1.650008e+00	
5	1.600000e-09	2.764914e-02	3.148393e-02	3.042309e-02	2.941841e-02	1.650017e+00	
6	3.200000e-09	2.764915e-02	3.148393e-02	3.042309e-02	2.941841e-02	1.650033e+00	
7	6.400000e-09	2.764917e-02	3.148393e-02	3.042309e-02	2.941841e-02	1.650066e+00	
8	1.000000e-08	2.764919e-02	3.148393e-02	3.042309e-02	2.941841e-02	1.650104e+00	
9	1.064000e-08	2.764919e-02	3.148394e-02	3.042309e-02	2.941841e-02	1.650110e+00	
10	1.192000e-08	2.764920e-02	3.148394e-02	3.042310e-02	2.941841e-02	1.650124e+00	
11	1.448000e-08	2.764922e-02	3.148398e-02	3.042313e-02	2.941841e-02	1.650150e+00	
12	1.960000e-08	2.764927e-02	3.148412e-02	3.042328e-02	2.941848e-02	1.650203e+00	
13	2.000000e-08	2.764928e-02	3.148414e-02	3.042330e-02	2.941848e-02	1.650207e+00	
14	2.080000e-08	2.764929e-02	3.148417e-02	3.042334e-02	2.941850e-02	1.650216e+00	
15	2.240000e-08	2.764931e-02	3.148423e-02	3.042340e-02	2.941855e-02	1.650232e+00	
16	2.560000e-08	2.764936e-02	3.148436e-02	3.042354e-02	2.941866e-02	1.650265e+00	
17	3.200000e-08	2.764951e-02	3.148462e-02	3.042381e-02	2.941892e-02	1.650332e+00	
18	4.480000e-08	2.765009e-02	3.148515e-02	3.042436e-02	2.941947e-02	1.650464e+00	
19	7.040000e-08	2.765344e-02	3.148619e-02	3.042545e-02	2.942055e-02	1.650730e+00	
20	1.018284e-07	2.766451e-02	3.148747e-02	3.042678e-02	2.942189e-02	1.651056e+00	
21	1.455842e-07	2.770167e-02	3.148926e-02	3.042864e-02	2.942375e-02	1.651509e+00	
22	1.899521e-07	2.777628e-02	3.149113e-02	3.043053e-02	2.942564e-02	1.651969e+00	
23	2.300335e-07	2.788467e-02	3.149292e-02	3.043224e-02	2.942735e-02	1.652385e+00	
24	2.688190e-07	2.803250e-02	3.149483e-02	3.043389e-02	2.942900e-02	1.652787e+00	
25	3.174682e-07	2.828233e-02	3.149770e-02	3.043596e-02	2.943107e-02	1.653291e+00	
26	3.793090e-07	2.870427e-02	3.150265e-02	3.043859e-02	2.943370e-02	1.653932e+00	
27	4.680085e-07	2.949601e-02	3.151415e-02	3.044238e-02	2.943749e-02	1.654852e+00	
28	6.182632e-07	3.119547e-02	3.155490e-02	3.044886e-02	2.944398e-02	1.656410e+00	
29	7.561357e-07	3.295761e-02	3.162784e-02	3.045496e-02	2.945008e-02	1.657839e+00	
30	8.807209e-07	3.454527e-02	3.173539e-02	3.046069e-02	2.945582e-02	1.659131e+00	
31	1.020000e-06	3.620371e-02	3.191620e-02	3.046751e-02	2.946263e-02	1.660575e+00	
32	1.021000e-06	3.621506e-02	3.191777e-02	3.046756e-02	2.946269e-02	1.660585e+00	
33	1.023000e-06	3.623775e-02	3.192089e-02	3.046764e-02	2.946279e-02	1.660606e+00	
34	1.027000e-06	3.628303e-02	3.192715e-02	3.046776e-02	2.946296e-02	1.660647e+00	
35	1.030000e-06	3.631690e-02	3.193185e-02	3.046781e-02	2.946307e-02	1.660678e+00	
36	1.030800e-06	3.632592e-02	3.193310e-02	3.046781e-02	2.946309e-02	1.660686e+00	
37	1.032400e-06	3.634395e-02	3.193562e-02	3.046783e-02	2.946313e-02	1.660703e+00	
38	1.035600e-06	3.637993e-02	3.194068e-02	3.046786e-02	2.946318e-02	1.660736e+00	
39	1.042000e-06	3.645166e-02	3.195093e-02	3.046791e-02	2.946325e-02	1.660803e+00	
40	1.054800e-06	3.659413e-02	3.197197e-02	3.046803e-02	2.946336e-02	1.660935e+00	
41	1.080400e-06	3.687531e-02	3.201618e-02	3.046828e-02	2.946362e-02	1.661201e+00	
42	1.131600e-06	3.742386e-02	3.211354e-02	3.046887e-02	2.946420e-02	1.661731e+00	
43	1.234000e-06	3.847822e-02	3.234706e-02	3.047039e-02	2.946572e-02	1.662793e+00	
44	1.438800e-06	4.051293e-02	3.299884e-02	3.047536e-02	2.947067e-02	1.664916e+00	
45	1.667223e-06	4.280700e-02	3.409927e-02	3.048511e-02	2.948039e-02	1.667284e+00	
46	1.883989e-06	4.508424e-02	3.560559e-02	3.050033e-02	2.949553e-02	1.669531e+00	
47	2.010000e-06	4.644651e-02	3.671698e-02	3.051264e-02	2.950779e-02	1.670838e+00	
48	2.011000e-06	4.645739e-02	3.672657e-02	3.051276e-02	2.950790e-02	1.670848e+00	
49	2.013000e-06	4.647915e-02	3.674569e-02	3.051299e-02	2.950812e-02	1.670869e+00	
50	2.017000e-06	4.652267e-02	3.678411e-02	3.051352e-02	2.950859e-02	1.670910e+00	
51	2.020000e-06	4.655532e-02	3.681308e-02	3.051396e-02	2.950897e-02	1.670941e+00	
52	2.020800e-06	4.656403e-02	3.682083e-02	3.051409e-02	2.950908e-02	1.670950e+00	
53	2.022400e-06	4.658144e-02	3.683634e-02	3.051433e-02	2.950930e-02	1.670966e+00	
54	2.025600e-06	4.661627e-02	3.686746e-02	3.051483e-02	2.950977e-02	1.670999e+00	
55	2.032000e-06	4.668595e-02	3.693004e-02	3.051583e-02	2.951075e-02	1.671066e+00	
56	2.044800e-06	4.682535e-02	3.705656e-02	3.051785e-02	2.951276e-02	1.671198e+00	
57	2.070400e-06	4.710426e-02	3.731504e-02	3.052199e-02	2.951689e-02	1.671464e+00	
58	2.121600e-06	4.766218e-02	3.785335e-02	3.053070e-02	2.952556e-02	1.671995e+00	
59	2.224000e-06	4.877621e-02	3.901153e-02	3.054994e-02	2.954472e-02	1.673056e+00	
60	2.428800e-06	5.099035e-02	4.160745e-02	3.059646e-02	2.959103e-02	1.675179e+00	
61	2.838400e-06	5.538924e-02	4.746525e-02	3.072556e-02	2.971958e-02	1.679425e+00	
62	3.020000e-06	5.734192e-02	5.015564e-02	3.079892e-02	2.979263e-02	1.681307e+00	
63	3.021000e-06	5.735271e-02	5.017035e-02	3.079935e-02	2.979307e-02	1.681318e+00	
64	3.023000e-06	5.737428e-02	5.019977e-02	3.080020e-02	2.979393e-02	1.681338e+00	
65	3.027000e-06	5.741744e-02	5.025855e-02	3.080184e-02	2.979563e-02	1.681380e+00	
66	3.030000e-06	5.744981e-02	5.030258e-02	3.080304e-02	2.979688e-02	1.681411e+00	
67	3.030800e-06	5.745845e-02	5.031431e-02	3.080335e-02	2.979721e-02	1.681419e+00	
68	3.032400e-06	5.747571e-02	5.033778e-02	3.080398e-02	2.979786e-02	1.681436e+00	
69	3.035600e-06	5.751025e-02	5.038470e-02	3.080524e-02	2.979914e-02	1.681469e+00	
70	3.042000e-06	5.757934e-02	5.047848e-02	3.080777e-02	2.980166e-02	1.681535e+00	
71	3.054800e-06	5.771759e-02	5.066583e-02	3.081286e-02	2.980674e-02	1.681668e+00	
72	3.080400e-06	5.799429e-02	5.103957e-02	3.082319e-02	2.981703e-02	1.681933e+00	
73	3.131600e-06	5.854860e-02	5.178301e-02	3.084445e-02	2.983820e-02	1.682464e+00	
74	3.234000e-06	5.966043e-02	5.325199e-02	3.088931e-02	2.988290e-02	1.683525e+00	
75	3.438800e-06	6.189392e-02	5.611098e-02	3.098814e-02	2.998140e-02	1.685648e+00	
76	3.848400e-06	6.638355e-02	6.152762e-02	3.122042e-02	3.021306e-02	1.689893e+00	
77	4.010000e-06	6.816067e-02	6.355562e-02	3.132428e-02	3.031669e-02	1.691568e+00	
78	4.011000e-06	6.817167e-02	6.356857e-02	3.132495e-02	3.031735e-02	1.691579e+00	
79	4.013000e-06	6.819369e-02	6.359339e-02	3.132629e-02	3.031868e-02	1.691599e+00	
80	4.017000e-06	6.823771e-02	6.364300e-02	3.132903e-02	3.032136e-02	1.691641e+00	
81	4.020000e-06	6.827073e-02	6.368025e-02	3.133114e-02	3.032340e-02	1.691672e+00	
82	4.020800e-06	6.827953e-02	6.369017e-02	3.133170e-02	3.032395e-02	1.691680e+00	
83	4.022400e-06	6.829715e-02	6.371003e-02	3.133284e-02	3.032506e-02	1.691697e+00	
84	4.025600e-06	6.833237e-02	6.374973e-02	3.133511e-02	3.032730e-02	1.691730e+00	
85	4.032000e-06	6.840282e-02	6.382909e-02	3.133965e-02	3.033182e-02	1.691796e+00	
86	4.044800e-06	6.854374e-02	6.398760e-02	3.134878e-02	3.034093e-02	1.691929e+00	
87	4.070400e-06	6.882564e-02	6.430383e-02	3.136715e-02	3.035926e-02	1.692194e+00	
88	4.121600e-06	6.938975e-02	6.493331e-02	3.140437e-02	3.039641e-02	1.692725e+00	
89	4.224000e-06	7.051931e-02	6.618123e-02	3.148074e-02	3.047264e-02	1.693786e+00	
90	4.428800e-06	7.278445e-02	6.864010e-02	3.164104e-02	3.063266e-02	1.695909e+00	
91	4.838400e-06	7.733947e-02	7.345652e-02	3.199110e-02	3.098219e-02	1.700153e+00	
92	5.020000e-06	7.936915e-02	7.556145e-02	3.215867e-02	3.114954e-02	1.702035e+00	
93	5.021000e-06	7.938035e-02	7.557310e-02	3.215961e-02	3.115048e-02	1.702045e+00	
94	5.023000e-06	7.940273e-02	7.559620e-02	3.216148e-02	3.115236e-02	1.702066e+00	
95	5.027000e-06	7.944751e-02	7.564236e-02	3.216518e-02	3.115611e-02	1.702108e+00	
96	5.030000e-06	7.948109e-02	7.567695e-02	3.216790e-02	3.115889e-02	1.702139e+00	
97	5.030800e-06	7.949004e-02	7.568617e-02	3.216863e-02	3.115963e-02	1.702147e+00	
98	5.032400e-06	7.950795e-02	7.570461e-02	3.217007e-02	3.116109e-02	1.702163e+00	
99	5.035600e-06	7.954378e-02	7.574148e-02	3.217297e-02	3.116401e-02	1.702197e+00	
100	5.042000e-06	7.961543e-02	7.581523e-02	3.217876e-02	3.116980e-02	1.702263e+00	
101	5.054800e-06	7.975876e-02	7.596268e-02	3.219037e-02	3.118140e-02	1.702396e+00	
102	5.080400e-06	8.004550e-02	7.625749e-02	3.221371e-02	3.120470e-02	1.702661e+00	
103	5.131600e-06	8.061929e-02	7.684671e-02	3.226082e-02	3.125175e-02	1.703191e+00	
104	5.234000e-06	8.176820e-02	7.802395e-02	3.235682e-02	3.134762e-02	1.704252e+00	
105	5.438800e-06	8.407132e-02	8.037583e-02	3.255586e-02	3.154641e-02	1.706374e+00	
106	5.848400e-06	8.869947e-02	8.507919e-02	3.298196e-02	3.197199e-02	1.710618e+00	
107	6.010000e-06	9.053361e-02	8.693622e-02	3.316031e-02	3.215013e-02	1.712292e+00	
108	6.011000e-06	9.054497e-02	8.694773e-02	3.316143e-02	3.215125e-02	1.712303e+00	
109	6.013000e-06	9.056770e-02	8.697074e-02	3.316369e-02	3.215350e-02	1.712323e+00	
110	6.017000e-06	9.061316e-02	8.701678e-02	3.316827e-02	3.215801e-02	1.712365e+00	
111	6.020000e-06	9.064726e-02	8.705134e-02	3.317175e-02	3.216142e-02	1.712396e+00	
112	6.020800e-06	9.065635e-02	8.706056e-02	3.317268e-02	3.216234e-02	1.712404e+00	
113	6.022400e-06	9.067454e-02	8.707901e-02	3.317455e-02	3.216418e-02	1.712421e+00	
114	6.025600e-06	9.071091e-02	8.711589e-02	3.317828e-02	3.216789e-02	1.712454e+00	
115	6.032000e-06	9.078367e-02	8.718966e-02	3.318576e-02	3.217534e-02	1.712520e+00	
116	6.044800e-06	9.092920e-02	8.733720e-02	3.320074e-02	3.219031e-02	1.712653e+00	
117	6.070400e-06	9.122034e-02	8.763233e-02	3.323080e-02	3.222034e-02	1.712918e+00	
118	6.121600e-06	9.180299e-02	8.822273e-02	3.329137e-02	3.228085e-02	1.713449e+00	
119	6.224000e-06	9.296967e-02	8.940405e-02	3.341424e-02	3.240358e-02	1.714509e+00	
120	6.428800e-06	9.530858e-02	9.176865e-02	3.366688e-02	3.265596e-02	1.716631e+00	
121	6.838400e-06	1.000084e-01	9.650675e-02	3.419968e-02	3.318824e-02	1.720874e+00	
122	7.020000e-06	1.021015e-01	9.861161e-02	3.444761e-02	3.343593e-02	1.722755e+00	
123	7.021000e-06	1.021130e-01	9.862322e-02	3.444899e-02	3.343732e-02	1.722765e+00	
124	7.023000e-06	1.021361e-01	9.864641e-02	3.445174e-02	3.344008e-02	1.722786e+00	
125	7.027000e-06	1.021823e-01	9.869275e-02	3.445720e-02	3.344560e-02	1.722827e+00	
126	7.030000e-06	1.022169e-01	9.872747e-02	3.446125e-02	3.344971e-02	1.722858e+00	
127	7.030800e-06	1.022261e-01	9.873673e-02	3.446233e-02	3.345079e-02	1.722866e+00	
128	7.032400e-06	1.022446e-01	9.875524e-02	3.446448e-02	3.345297e-02	1.722883e+00	
129	7.035600e-06	1.022816e-01	9.879227e-02	3.446879e-02	3.345729e-02	1.722916e+00	
130	7.042000e-06	1.023554e-01	9.886633e-02	3.447740e-02	3.346592e-02	1.722982e+00	
131	7.054800e-06	1.025032e-01	9.901446e-02	3.449467e-02	3.348316e-02	1.723115e+00	
132	7.080400e-06	1.027989e-01	9.931077e-02	3.452930e-02	3.351776e-02	1.723380e+00	
133	7.131600e-06	1.033906e-01	9.990363e-02	3.459899e-02	3.358738e-02	1.723910e+00	
134	7.234000e-06	1.045754e-01	1.010904e-01	3.474008e-02	3.372834e-02	1.724971e+00	
135	7.438800e-06	1.069505e-01	1.034685e-01	3.502909e-02	3.401709e-02	1.727092e+00	
136	7.848400e-06	1.117227e-01	1.082452e-01	3.563437e-02	3.462185e-02	1.731333e+00	
137	8.010000e-06	1.136135e-01	1.101372e-01	3.588317e-02	3.487043e-02	1.733007e+00	
138	8.011000e-06	1.136252e-01	1.101489e-01	3.588473e-02	3.487199e-02	1.733017e+00	
139	8.013000e-06	1.136487e-01	1.101724e-01	3.588787e-02	3.487510e-02	1.733038e+00	
140	8.017000e-06	1.136955e-01	1.102193e-01	3.589418e-02	3.488136e-02	1.733079e+00	
141	8.020000e-06	1.137307e-01	1.102545e-01	3.589897e-02	3.488608e-02	1.733110e+00	
142	8.020800e-06	1.137401e-01	1.102639e-01	3.590025e-02	3.488735e-02	1.733118e+00	
143	8.022400e-06	1.137588e-01	1.102827e-01	3.590281e-02	3.488988e-02	1.733135e+00	
144	8.025600e-06	1.137963e-01	1.103203e-01	3.590794e-02	3.489498e-02	1.733168e+00	
145	8.032000e-06	1.138713e-01	1.103956e-01	3.591821e-02	3.490523e-02	1.733234e+00	
146	8.044800e-06	1.140213e-01	1.105460e-01	3.593876e-02	3.492576e-02	1.733367e+00	
147	8.070400e-06	1.143214e-01	1.108470e-01	3.597997e-02	3.496694e-02	1.733632e+00	
148	8.121600e-06	1.149220e-01	1.114492e-01	3.606282e-02	3.504973e-02	1.734162e+00	
149	8.224000e-06	1.161245e-01	1.126548e-01	3.623022e-02	3.521699e-02	1.735222e+00	
150	8.428800e-06	1.185349e-01	1.150698e-01	3.657180e-02	3.555829e-02	1.737343e+00	
151	8.838400e-06	1.233777e-01	1.199148e-01	3.728199e-02	3.626794e-02	1.741583e+00	
152	9.020000e-06	1.255341e-01	1.220695e-01	3.760837e-02	3.659408e-02	1.743463e+00	
153	9.021000e-06	1.255460e-01	1.220814e-01	3.761018e-02	3.659590e-02	1.743473e+00	
154	9.023000e-06	1.255698e-01	1.221051e-01	3.761380e-02	3.659953e-02	1.743494e+00	
155	9.027000e-06	1.256174e-01	1.221525e-01	3.762099e-02	3.660677e-02	1.743535e+00	
156	9.030000e-06	1.256530e-01	1.221881e-01	3.762633e-02	3.661217e-02	1.743566e+00	
157	9.030800e-06	1.256625e-01	1.221976e-01	3.762775e-02	3.661360e-02	1.743574e+00	
158	9.032400e-06	1.256816e-01	1.222165e-01	3.763060e-02	3.661647e-02	1.743591e+00	
159	9.035600e-06	1.257196e-01	1.222545e-01	3.763628e-02	3.662218e-02	1.743624e+00	
160	9.042000e-06	1.257957e-01	1.223303e-01	3.764766e-02	3.663356e-02	1.743690e+00	
161	9.054800e-06	1.259480e-01	1.224820e-01	3.767045e-02	3.665633e-02	1.743823e+00	
162	9.080400e-06	1.262526e-01	1.227855e-01	3.771613e-02	3.670197e-02	1.744088e+00	
163	9.131600e-06	1.268621e-01	1.233927e-01	3.780791e-02	3.679369e-02	1.744618e+00	
164	9.234000e-06	1.280826e-01	1.246085e-01	3.799316e-02	3.697879e-02	1.745678e+00	
