Warning: v123: has no value, DC 0 assumed


Circuit: **************************************************************

Doing analysis at TEMP = 27.000000 and TNOM = 27.000000


No. of Data Rows : 37
     **************************************************************
     AC Analysis  Fri Jan  2 23:46:51  2015
------------------------------------------------------------------------
Index   frequency       vdb(vout)       vp(vout)        
------------------------------------------------------------------------
0	1.000000e+04	7.343003e+01	-1.09723e+00	
1	1.258925e+04	7.177701e+01	-1.18425e+00	
2	1.584893e+04	7.001113e+01	-1.25815e+00	
3	1.995262e+04	6.816561e+01	-1.31953e+00	
4	2.511886e+04	6.626599e+01	-1.36974e+00	
5	3.162278e+04	6.433054e+01	-1.41040e+00	
6	3.981072e+04	6.237177e+01	-1.44313e+00	
7	5.011872e+04	6.039798e+01	-1.46936e+00	
8	6.309573e+04	5.841461e+01	-1.49034e+00	
9	7.943282e+04	5.642513e+01	-1.50712e+00	
10	1.000000e+05	5.443178e+01	-1.52054e+00	
11	1.258925e+05	5.243597e+01	-1.53131e+00	
12	1.584893e+05	5.043862e+01	-1.53999e+00	
13	1.995262e+05	4.844029e+01	-1.54703e+00	
14	2.511886e+05	4.644134e+01	-1.55281e+00	
15	3.162278e+05	4.444199e+01	-1.55763e+00	
16	3.981072e+05	4.244238e+01	-1.56175e+00	
17	5.011872e+05	4.044261e+01	-1.56539e+00	
18	6.309573e+05	3.844271e+01	-1.56874e+00	
19	7.943282e+05	3.644271e+01	-1.57198e+00	
20	1.000000e+06	3.444261e+01	-1.57528e+00	
21	1.258925e+06	3.244238e+01	-1.57882e+00	
22	1.584893e+06	3.044199e+01	-1.58279e+00	
23	1.995262e+06	2.844135e+01	-1.58739e+00	
24	2.511886e+06	2.644033e+01	-1.59287e+00	
25	3.162278e+06	2.443871e+01	-1.59951e+00	
26	3.981072e+06	2.243621e+01	-1.60766e+00	
27	5.011872e+06	2.043235e+01	-1.61772e+00	
28	6.309573e+06	1.842653e+01	-1.63019e+00	
29	7.943282e+06	1.641790e+01	-1.64568e+00	
30	1.000000e+07	1.440542e+01	-1.66493e+00	
31	1.258925e+07	1.238778e+01	-1.68885e+00	
32	1.584893e+07	1.036319e+01	-1.71861e+00	
33	1.995262e+07	8.328831e+00	-1.75572e+00	
34	2.511886e+07	6.279846e+00	-1.80207e+00	
35	3.162278e+07	4.207984e+00	-1.85998e+00	
36	3.981072e+07	2.099900e+00	-1.93220e+00	

elapsed time since last call: 0.014 seconds.

Total elapsed time: 0.014 seconds.

Total DRAM available = 3920.781250 MB.
DRAM currently available = 1369.777344 MB.
Total ngspice program size = 5.523438 MB.
Resident set size = 1.715820 MB.
Shared ngspice pages = 557.000 kB.
Text (code) pages = 1.073242 MB.
Stack = 0 bytes.
Library pages = 3.092773 MB.


